
**** 09/14/22 15:02:42 ****** PSpice 17.2.0 (March 2016) ****** ID# 0 ********

 *Yusuf Ahmed Khan 20ELB084


 ****     CIRCUIT DESCRIPTION


******************************************************************************




Vcc 3 0 DC 15V
Rc 3 2 15K
Rb 4 1 10K
Vbb 4 0 DC 7V
Qt 2 1 0 Q2N2222
.model Q2N2222 npn()
.PROBE
.END

**** 09/14/22 15:02:42 ****** PSpice 17.2.0 (March 2016) ****** ID# 0 ********

 *Yusuf Ahmed Khan 20ELB084


 ****     BJT MODEL PARAMETERS


******************************************************************************




               Q2N2222         
               NPN             
       LEVEL    1            
          IS  100.000000E-18 
          BF  100            
          NF    1            
          BR    1            
          NR    1            
         ISS    0            
          RE    0            
          RC    0            
         CJE    0            
         VJE     .75         
         CJC    0            
         VJC     .75         
         MJC     .33         
        XCJC    1            
         CJS    0            
         VJS     .75         
          KF    0            
          AF    1            
          CN    2.42         
           D     .87         


**** 09/14/22 15:02:42 ****** PSpice 17.2.0 (March 2016) ****** ID# 0 ********

 *Yusuf Ahmed Khan 20ELB084


 ****     SMALL SIGNAL BIAS SOLUTION       TEMPERATURE =   27.000 DEG C


******************************************************************************



 NODE   VOLTAGE     NODE   VOLTAGE     NODE   VOLTAGE     NODE   VOLTAGE


(    1)     .7945  (    2)     .0336  (    3)   15.0000  (    4)    7.0000  




    VOLTAGE SOURCE CURRENTS
    NAME         CURRENT

    Vcc         -9.978E-04
    Vbb         -6.205E-04

    TOTAL POWER DISSIPATION   1.93E-02  WATTS



          JOB CONCLUDED

**** 09/14/22 15:02:42 ****** PSpice 17.2.0 (March 2016) ****** ID# 0 ********

 *Yusuf Ahmed Khan 20ELB084


 ****     JOB STATISTICS SUMMARY


******************************************************************************



  Total job time (using Solver 1)   =         .02
