
**** 09/14/22 16:13:03 ******* PSpice Lite (March 2016) ******* ID# 10813 ****

 *Yusuf Ahmed Khan 20ELB084


 ****     CIRCUIT DESCRIPTION


******************************************************************************




Vcc 3 0 DC 15V
Rc 3 2 1K
Rb 4 1 10K
R1 3 4 12K
R2 4 0 1K
C1 4 5 10UF
VIN 5 0 SIN (0 10M 1K)
Q1 2 1 0 Q2N2222
.model Q2N2222  NPN(Is=14.34f Xti=3 Eg=1.11 Vaf=74.03 Bf=255.9 Ne=1.307
+               Ise=14.34f Ikf=.2847 Xtb=1.5 Br=6.092 Nc=2 Isc=0 Ikr=0 Rc=1
+               Cjc=7.306p Mjc=.3416 Vjc=.75 Fc=.5 Cje=22.01p Mje=.377 Vje=.75
+               Tr=46.91n Tf=411.1p Itf=.6 Vtf=1.7 Xtf=3 Rb=10)
.TRAN 0.1U 5M
.PROBE
.END

**** 09/14/22 16:13:03 ******* PSpice Lite (March 2016) ******* ID# 10813 ****

 *Yusuf Ahmed Khan 20ELB084


 ****     BJT MODEL PARAMETERS


******************************************************************************




               Q2N2222         
               NPN             
       LEVEL    1            
          IS   14.340000E-15 
          BF  255.9          
          NF    1            
         VAF   74.03         
         IKF     .2847       
         ISE   14.340000E-15 
          NE    1.307        
          BR    6.092        
          NR    1            
         ISS    0            
          RB   10            
          RE    0            
          RC    1            
         CJE   22.010000E-12 
         VJE     .75         
         MJE     .377        
         CJC    7.306000E-12 
         VJC     .75         
         MJC     .3416       
        XCJC    1            
         CJS    0            
         VJS     .75         
          TF  411.100000E-12 
         XTF    3            
         VTF    1.7          
         ITF     .6          
          TR   46.910000E-09 
         XTB    1.5          
          KF    0            
          AF    1            
          CN    2.42         
           D     .87         


**** 09/14/22 16:13:03 ******* PSpice Lite (March 2016) ******* ID# 10813 ****

 *Yusuf Ahmed Khan 20ELB084


 ****     INITIAL TRANSIENT SOLUTION       TEMPERATURE =   27.000 DEG C


******************************************************************************



 NODE   VOLTAGE     NODE   VOLTAGE     NODE   VOLTAGE     NODE   VOLTAGE


(    1)     .6978  (    2)    7.2058  (    3)   15.0000  (    4)    1.1153      

(    5)    0.0000  




    VOLTAGE SOURCE CURRENTS
    NAME         CURRENT

    Vcc         -8.951E-03
    VIN          0.000E+00

    TOTAL POWER DISSIPATION   1.34E-01  WATTS



          JOB CONCLUDED

**** 09/14/22 16:13:03 ******* PSpice Lite (March 2016) ******* ID# 10813 ****

 *Yusuf Ahmed Khan 20ELB084


 ****     JOB STATISTICS SUMMARY


******************************************************************************



  Total job time (using Solver 1)   =        0.00
